V1	V(d1)	I(D1)
-2.000000000000000e+00	-2.000000e+00	-7.889456e-11
-1.900000000000000e+00	-1.900000e+00	-7.879412e-11
-1.800000000000000e+00	-1.800000e+00	-7.869366e-11
-1.700000000000000e+00	-1.700000e+00	-7.859322e-11
-1.600000000000000e+00	-1.600000e+00	-7.849806e-11
-1.500000000000000e+00	-1.500000e+00	-7.839761e-11
-1.400000000000000e+00	-1.400000e+00	-7.829716e-11
-1.300000000000000e+00	-1.300000e+00	-7.819671e-11
-1.200000000000000e+00	-1.200000e+00	-7.809626e-11
-1.100000000000000e+00	-1.100000e+00	-7.799581e-11
-1.000000000000000e+00	-9.999999e-01	-7.789536e-11
-8.999999999999999e-01	-8.999999e-01	-7.779492e-11
-7.999999999999998e-01	-7.999999e-01	-7.769711e-11
-7.000000000000000e-01	-6.999999e-01	-7.759666e-11
-5.999999999999999e-01	-5.999999e-01	-7.749885e-11
-5.000000000000000e-01	-4.999999e-01	-7.739973e-11
-3.999999999999999e-01	-3.999999e-01	-7.729796e-11
-2.999999999999998e-01	-2.999999e-01	-7.717372e-11
-2.000000000000000e-01	-1.999999e-01	-7.672897e-11
-9.999999999999987e-02	-9.999993e-02	-7.165531e-11
0.000000000000000e+00	0.000000e+00	0.000000e+00
1.000000000000001e-01	9.999897e-02	1.029579e-09
2.000000000000002e-01	1.999842e-01	1.583519e-08
3.000000000000003e-01	2.997724e-01	2.275660e-07
4.000000000000004e-01	3.969613e-01	3.038675e-06
5.000000000000000e-01	4.754210e-01	2.457895e-05
6.000000000000001e-01	5.197515e-01	8.024844e-05
7.000000000000002e-01	5.446941e-01	1.553059e-04
8.000000000000003e-01	5.607301e-01	2.392699e-04
9.000000000000004e-01	5.727088e-01	3.272911e-04
1.000000000000000e+00	5.817879e-01	4.182121e-04
1.100000000000000e+00	5.892109e-01	5.107891e-04
1.200000000000000e+00	5.955110e-01	6.044890e-04
1.300000000000000e+00	6.009580e-01	6.990419e-04
1.400000000000000e+00	6.057470e-01	7.942530e-04
1.500000000000000e+00	6.100168e-01	8.899832e-04
1.600000000000000e+00	6.138670e-01	9.861329e-04
1.700000000000000e+00	6.173716e-01	1.082628e-03
1.800000000000000e+00	6.205865e-01	1.179414e-03
1.900000000000000e+00	6.235554e-01	1.276445e-03
2.000000000000000e+00	6.263128e-01	1.373687e-03
2.100000000000001e+00	6.288866e-01	1.471113e-03
2.200000000000000e+00	6.312994e-01	1.568701e-03
2.300000000000000e+00	6.335700e-01	1.666430e-03
2.400000000000000e+00	6.357142e-01	1.764286e-03
2.500000000000000e+00	6.377450e-01	1.862255e-03
2.600000000000001e+00	6.396739e-01	1.960326e-03
2.700000000000000e+00	6.415105e-01	2.058489e-03
2.800000000000001e+00	6.432633e-01	2.156737e-03
2.900000000000000e+00	6.449393e-01	2.255061e-03
3.000000000000000e+00	6.465452e-01	2.353455e-03
3.100000000000001e+00	6.480864e-01	2.451914e-03
3.200000000000000e+00	6.495680e-01	2.550432e-03
3.300000000000001e+00	6.509943e-01	2.649006e-03
3.400000000000000e+00	6.523694e-01	2.747631e-03
3.500000000000000e+00	6.536967e-01	2.846303e-03
3.600000000000001e+00	6.549796e-01	2.945020e-03
3.700000000000000e+00	6.562207e-01	3.043779e-03
3.800000000000001e+00	6.574229e-01	3.142577e-03
3.900000000000000e+00	6.585884e-01	3.241412e-03
4.000000000000000e+00	6.597194e-01	3.340281e-03
4.100000000000001e+00	6.608179e-01	3.439182e-03
4.200000000000000e+00	6.618857e-01	3.538114e-03
4.300000000000001e+00	6.629244e-01	3.637076e-03
4.400000000000000e+00	6.639357e-01	3.736064e-03
4.500000000000000e+00	6.649208e-01	3.835079e-03
4.600000000000001e+00	6.658812e-01	3.934119e-03
4.700000000000000e+00	6.668181e-01	4.033182e-03
4.800000000000001e+00	6.677325e-01	4.132268e-03
4.900000000000000e+00	6.686255e-01	4.231375e-03
5.000000000000000e+00	6.694981e-01	4.330502e-03
5.100000000000001e+00	6.703513e-01	4.429649e-03
5.200000000000000e+00	6.711858e-01	4.528814e-03
5.300000000000001e+00	6.720024e-01	4.627998e-03
5.400000000000000e+00	6.728020e-01	4.727198e-03
5.500000000000000e+00	6.735852e-01	4.826415e-03
5.600000000000001e+00	6.743526e-01	4.925647e-03
5.700000000000000e+00	6.751050e-01	5.024895e-03
5.800000000000001e+00	6.758428e-01	5.124157e-03
5.900000000000000e+00	6.765666e-01	5.223433e-03
6.000000000000000e+00	6.772770e-01	5.322723e-03
6.100000000000000e+00	6.779744e-01	5.422025e-03
6.200000000000001e+00	6.786593e-01	5.521341e-03
6.300000000000001e+00	6.793322e-01	5.620668e-03
6.400000000000000e+00	6.799934e-01	5.720007e-03
6.500000000000000e+00	6.806434e-01	5.819357e-03
6.600000000000000e+00	6.812825e-01	5.918717e-03
6.700000000000001e+00	6.819111e-01	6.018089e-03
6.800000000000001e+00	6.825296e-01	6.117471e-03
6.900000000000000e+00	6.831382e-01	6.216862e-03
7.000000000000000e+00	6.837373e-01	6.316263e-03
7.100000000000000e+00	6.843271e-01	6.415673e-03
7.200000000000001e+00	6.849080e-01	6.515092e-03
7.300000000000001e+00	6.854802e-01	6.614520e-03
7.400000000000000e+00	6.860440e-01	6.713956e-03
7.500000000000000e+00	6.865996e-01	6.813400e-03
7.600000000000001e+00	6.871473e-01	6.912853e-03
7.700000000000001e+00	6.876872e-01	7.012313e-03
7.800000000000001e+00	6.882196e-01	7.111780e-03
7.900000000000000e+00	6.887447e-01	7.211255e-03
8.000000000000000e+00	6.892627e-01	7.310737e-03
8.100000000000001e+00	6.897739e-01	7.410226e-03
8.200000000000001e+00	6.902783e-01	7.509722e-03
8.300000000000001e+00	6.907761e-01	7.609224e-03
8.400000000000000e+00	6.912675e-01	7.708733e-03
8.500000000000000e+00	6.917528e-01	7.808247e-03
8.600000000000001e+00	6.922320e-01	7.907768e-03
8.700000000000001e+00	6.927052e-01	8.007294e-03
8.800000000000001e+00	6.931728e-01	8.106827e-03
8.900000000000000e+00	6.936346e-01	8.206366e-03
9.000000000000000e+00	6.940910e-01	8.305909e-03
9.100000000000001e+00	6.945420e-01	8.405458e-03
9.200000000000001e+00	6.949878e-01	8.505012e-03
9.300000000000001e+00	6.954284e-01	8.604571e-03
9.400000000000000e+00	6.958641e-01	8.704136e-03
9.500000000000000e+00	6.962948e-01	8.803705e-03
9.600000000000001e+00	6.967208e-01	8.903279e-03
9.700000000000001e+00	6.971421e-01	9.002858e-03
9.800000000000001e+00	6.975589e-01	9.102441e-03
9.900000000000000e+00	6.979712e-01	9.202029e-03
1.000000000000000e+01	6.983790e-01	9.301621e-03
