time	V(vo)	V(n001)
0.000000000000000e+00	0.000000e+00	0.000000e+00
7.142857226329270e-09	3.314042e-06	7.616118e-05
1.428571445265854e-08	1.091699e-05	1.523224e-04
2.142857167898781e-08	2.280883e-05	2.284835e-04
2.857142890531708e-08	3.898958e-05	3.046447e-04
3.571428613164635e-08	5.945923e-05	3.808059e-04
4.285714335797562e-08	8.421778e-05	4.569671e-04
5.000000058430487e-08	1.132652e-04	5.331283e-04
7.732285459217011e-08	2.494662e-04	8.244600e-04
1.226826839060037e-07	5.517352e-04	1.308112e-03
1.780302632904280e-07	1.007699e-03	1.898259e-03
2.644298982534038e-07	1.822985e-03	2.819501e-03
3.791147726036047e-07	2.994915e-03	4.042336e-03
5.665857759434211e-07	4.975420e-03	6.041258e-03
3.264539302102069e-06	3.374193e-02	3.480839e-02
5.962492828260717e-06	6.250806e-02	6.357545e-02
8.660446354419366e-06	9.127383e-02	9.234245e-02
1.135839988057801e-05	1.200392e-01	1.211094e-01
1.405635340673666e-05	1.488042e-01	1.498762e-01
1.675430693289531e-05	1.775689e-01	1.786430e-01
1.945226045905395e-05	2.063332e-01	2.074097e-01
3.863770775618211e-05	4.107744e-01	4.119670e-01
5.757778823632943e-05	6.122984e-01	6.138934e-01
7.972084193270304e-05	8.482285e-01	8.499398e-01
1.231067031885515e-04	1.310818e+00	1.312306e+00
1.487037073900587e-04	1.583575e+00	1.584986e+00
1.877662073900587e-04	1.999628e+00	2.000909e+00
2.268287073900587e-04	2.415321e+00	2.416529e+00
2.658912073900587e-04	2.830668e+00	2.831787e+00
3.049537073900587e-04	3.245544e+00	3.246617e+00
3.440162073900587e-04	3.659955e+00	3.660959e+00
3.830787073900587e-04	4.073775e+00	4.074749e+00
4.221412073900586e-04	4.487008e+00	4.487926e+00
4.612037073900586e-04	4.899529e+00	4.900426e+00
5.002662073900587e-04	5.311340e+00	5.312189e+00
5.393287073900587e-04	5.722316e+00	5.723152e+00
5.783912073900587e-04	6.132460e+00	6.133253e+00
6.174537073900588e-04	6.541646e+00	6.542430e+00
6.565162073900588e-04	6.949876e+00	6.950622e+00
6.955787073900588e-04	7.357027e+00	7.357768e+00
7.346412073900589e-04	7.763100e+00	7.763805e+00
7.737037073900589e-04	8.167971e+00	8.168673e+00
8.127662073900589e-04	8.571641e+00	8.572310e+00
8.518287073900590e-04	8.973989e+00	8.974657e+00
8.908912073900590e-04	9.375015e+00	9.375653e+00
9.299537073900590e-04	9.774598e+00	9.775236e+00
9.690162073900591e-04	1.017274e+01	1.017335e+01
1.008078707390059e-03	1.056932e+01	1.056993e+01
1.047141207390059e-03	1.096433e+01	1.096491e+01
1.086203707390059e-03	1.135766e+01	1.135825e+01
1.125266207390059e-03	1.174932e+01	1.174988e+01
1.164328707390059e-03	1.213917e+01	1.213973e+01
1.203391207390059e-03	1.252722e+01	1.252776e+01
1.242453707390059e-03	1.291336e+01	1.291390e+01
1.281516207390059e-03	1.329758e+01	1.329810e+01
1.320578707390059e-03	1.367977e+01	1.368029e+01
1.359641207390059e-03	1.405993e+01	1.406043e+01
1.398703707390059e-03	1.443794e+01	1.443844e+01
1.437766207390059e-03	1.481380e+01	1.481428e+01
1.476828707390059e-03	1.518741e+01	1.518789e+01
1.515891207390059e-03	1.555875e+01	1.555922e+01
1.554953707390059e-03	1.592773e+01	1.592820e+01
1.594016207390060e-03	1.629433e+01	1.629478e+01
1.633078707390060e-03	1.665845e+01	1.665891e+01
1.672141207390060e-03	1.702010e+01	1.702053e+01
1.711203707390060e-03	1.737914e+01	1.737958e+01
1.750266207390060e-03	1.773560e+01	1.773602e+01
1.789328707390060e-03	1.808937e+01	1.808979e+01
1.828391207390060e-03	1.844043e+01	1.844083e+01
1.867453707390060e-03	1.878869e+01	1.878910e+01
1.906516207390060e-03	1.913415e+01	1.913453e+01
1.945578707390060e-03	1.947669e+01	1.947709e+01
1.984641207390060e-03	1.981631e+01	1.981671e+01
2.005664010718630e-03	1.999501e+01	1.999826e+01
2.023625538476833e-03	2.012852e+01	2.015268e+01
2.042694850019818e-03	2.021611e+01	2.031592e+01
2.065646899792072e-03	2.027067e+01	2.051143e+01
2.097078602428238e-03	2.031155e+01	2.077744e+01
2.130264461660316e-03	2.033776e+01	2.105610e+01
2.364639461660316e-03	2.041694e+01	2.295725e+01
2.515309104517459e-03	2.043801e+01	2.412002e+01
2.665978747374602e-03	2.045639e+01	2.522298e+01
2.816648390231745e-03	2.047209e+01	2.626612e+01
2.967318033088888e-03	2.048511e+01	2.724945e+01
3.117987675946031e-03	2.049544e+01	2.817297e+01
3.268657318803174e-03	2.050310e+01	2.903668e+01
3.419326961660317e-03	2.050807e+01	2.984058e+01
3.888076961660317e-03	2.052340e+01	3.190291e+01
4.356826961660318e-03	2.053337e+01	3.324779e+01
4.825576961660319e-03	2.053798e+01	3.387522e+01
5.294326961660319e-03	2.053722e+01	3.378520e+01
5.763076961660320e-03	2.053110e+01	3.297773e+01
6.231826961660320e-03	2.051962e+01	3.145282e+01
6.700576961660320e-03	2.050277e+01	2.921045e+01
6.840085890231749e-03	2.049769e+01	2.842078e+01
6.979594818803178e-03	2.048982e+01	2.758085e+01
7.119103747374606e-03	2.047916e+01	2.669065e+01
7.258612675946035e-03	2.046571e+01	2.575018e+01
7.398121604517464e-03	2.044947e+01	2.475945e+01
7.537630533088892e-03	2.043044e+01	2.371845e+01
7.677139461660321e-03	2.040862e+01	2.262719e+01
7.872451961660320e-03	2.033734e+01	2.103338e+01
7.911514461660319e-03	2.030412e+01	2.070492e+01
7.950576961660318e-03	2.023982e+01	2.037334e+01
7.975421225958549e-03	2.013875e+01	2.016086e+01
7.992312321397797e-03	2.001288e+01	2.001569e+01
8.004987155302986e-03	1.990705e+01	1.990639e+01
8.016979735358672e-03	1.980227e+01	1.980268e+01
8.030171446279115e-03	1.968924e+01	1.968827e+01
8.048196528649047e-03	1.953106e+01	1.953141e+01
8.067705423072434e-03	1.936189e+01	1.936092e+01
8.099587532735830e-03	1.908042e+01	1.908075e+01
8.138650032735829e-03	1.873584e+01	1.873487e+01
8.177712532735828e-03	1.838585e+01	1.838616e+01
8.216775032735827e-03	1.803566e+01	1.803469e+01
8.255837532735826e-03	1.768019e+01	1.768050e+01
8.294900032735825e-03	1.732462e+01	1.732365e+01
8.333962532735825e-03	1.696389e+01	1.696419e+01
8.373025032735824e-03	1.660315e+01	1.660217e+01
8.412087532735823e-03	1.623737e+01	1.623766e+01
8.451150032735822e-03	1.587167e+01	1.587070e+01
8.490212532735821e-03	1.550107e+01	1.550135e+01
8.529275032735820e-03	1.513064e+01	1.512966e+01
8.568337532735820e-03	1.475543e+01	1.475570e+01
8.607400032735819e-03	1.438049e+01	1.437952e+01
8.646462532735818e-03	1.400091e+01	1.400117e+01
8.685525032735817e-03	1.362168e+01	1.362071e+01
8.724587532735816e-03	1.323794e+01	1.323820e+01
8.763650032735815e-03	1.285466e+01	1.285369e+01
8.802712532735815e-03	1.246701e+01	1.246725e+01
8.841775032735814e-03	1.207990e+01	1.207893e+01
8.880837532735813e-03	1.168856e+01	1.168880e+01
8.919900032735812e-03	1.129787e+01	1.129690e+01
8.958962532735811e-03	1.090308e+01	1.090330e+01
8.998025032735810e-03	1.050903e+01	1.050806e+01
9.037087532735810e-03	1.011102e+01	1.011124e+01
9.076150032735809e-03	9.713861e+00	9.712894e+00
9.115212532735808e-03	9.312874e+00	9.313087e+00
9.154275032735807e-03	8.912841e+00	8.911876e+00
9.193337532735806e-03	8.509117e+00	8.509323e+00
9.232400032735805e-03	8.106452e+00	8.105490e+00
9.271462532735805e-03	7.700235e+00	7.700435e+00
9.310525032735804e-03	7.295180e+00	7.294220e+00
9.349587532735803e-03	6.886715e+00	6.886907e+00
9.388650032735802e-03	6.479515e+00	6.478557e+00
9.427712532735801e-03	6.069045e+00	6.069232e+00
9.466775032735800e-03	5.659947e+00	5.658992e+00
9.505837532735800e-03	5.247720e+00	5.247900e+00
9.544900032735799e-03	4.836971e+00	4.836018e+00
9.583962532735798e-03	4.423233e+00	4.423408e+00
9.623025032735797e-03	4.011081e+00	4.010131e+00
9.662087532735796e-03	3.596112e+00	3.596250e+00
9.701150032735795e-03	3.183146e+00	3.181828e+00
9.740212532735795e-03	2.767062e+00	2.766927e+00
9.779275032735794e-03	2.352930e+00	2.351609e+00
9.818337532735793e-03	1.936131e+00	1.935937e+00
9.857400032735792e-03	1.521324e+00	1.519973e+00
9.896462532735791e-03	1.104030e+00	1.103780e+00
9.935525032735790e-03	6.888146e-01	6.874216e-01
9.974587532735790e-03	2.712689e-01	2.709592e-01
1.001365003273579e-02	-1.440975e-01	-1.455439e-01
1.005271253273579e-02	-5.616435e-01	-5.620251e-01
1.009177503273579e-02	-9.769078e-01	-9.784217e-01
1.013083753273579e-02	-1.394200e+00	-1.394671e+00
1.016990003273579e-02	-1.809108e+00	-1.810710e+00
1.020896253273578e-02	-2.225890e+00	-2.226477e+00
1.024802503273578e-02	-2.640184e+00	-2.641908e+00
1.028708753273578e-02	-3.056193e+00	-3.056941e+00
1.032615003273578e-02	-3.469608e+00	-3.471514e+00
1.036521253273578e-02	-3.884566e+00	-3.885564e+00
1.040427503273578e-02	-4.296808e+00	-4.299029e+00
1.044333753273578e-02	-4.710372e+00	-4.711847e+00
1.048240003273578e-02	-5.116118e+00	-5.123955e+00
1.050644283058112e-02	-5.280197e+00	-5.377226e+00
1.052937078795965e-02	-5.344301e+00	-5.618468e+00
1.055999591695339e-02	-5.387622e+00	-5.940240e+00
1.058866166229809e-02	-5.412529e+00	-6.240927e+00
1.062772416229809e-02	-5.436257e+00	-6.649851e+00
1.070584916229809e-02	-5.467790e+00	-7.464634e+00
1.082303666229808e-02	-5.497787e+00	-8.678225e+00
1.094022416229808e-02	-5.516804e+00	-9.883996e+00
1.105741166229808e-02	-5.533807e+00	-1.107241e+01
1.117459916229808e-02	-5.548795e+00	-1.224348e+01
1.129178666229807e-02	-5.561769e+00	-1.339720e+01
1.140897416229807e-02	-5.572728e+00	-1.453356e+01
1.152616166229807e-02	-5.581673e+00	-1.565257e+01
1.164334916229807e-02	-5.588603e+00	-1.675423e+01
1.189446523372663e-02	-5.603334e+00	-1.905840e+01
1.214558130515520e-02	-5.616565e+00	-2.121326e+01
1.239669737658376e-02	-5.628296e+00	-2.321880e+01
1.264781344801233e-02	-5.638527e+00	-2.507503e+01
1.289892951944090e-02	-5.647259e+00	-2.678194e+01
1.315004559086946e-02	-5.654490e+00	-2.833953e+01
1.340116166229803e-02	-5.660222e+00	-2.974781e+01
1.393129559086945e-02	-5.670221e+00	-3.204298e+01
1.446142951944086e-02	-5.676227e+00	-3.342979e+01
1.499156344801228e-02	-5.678240e+00	-3.390825e+01
1.552169737658370e-02	-5.676261e+00	-3.347837e+01
1.605183130515512e-02	-5.670288e+00	-3.214013e+01
1.658196523372654e-02	-5.660322e+00	-2.989354e+01
1.711209916229795e-02	-5.646363e+00	-2.673860e+01
1.733531344801223e-02	-5.639647e+00	-2.518579e+01
1.755852773372651e-02	-5.631252e+00	-2.353100e+01
1.778174201944080e-02	-5.621177e+00	-2.177423e+01
1.800495630515508e-02	-5.609423e+00	-1.991548e+01
1.822817059086936e-02	-5.595990e+00	-1.795475e+01
1.845138487658364e-02	-5.580878e+00	-1.589203e+01
1.867459916229792e-02	-5.564086e+00	-1.372733e+01
1.875830451944078e-02	-5.557513e+00	-1.290497e+01
1.884200987658363e-02	-5.549041e+00	-1.207513e+01
1.892571523372649e-02	-5.538670e+00	-1.123782e+01
1.900942059086934e-02	-5.526399e+00	-1.039304e+01
1.909312594801220e-02	-5.512228e+00	-9.540784e+00
1.917683130515505e-02	-5.496159e+00	-8.681053e+00
1.926053666229791e-02	-5.478189e+00	-7.813849e+00
1.933866166229790e-02	-5.452335e+00	-7.000941e+00
1.937772416229790e-02	-5.434483e+00	-6.592875e+00
1.941678666229790e-02	-5.410200e+00	-6.183815e+00
1.945584916229790e-02	-5.370944e+00	-5.773826e+00
1.949491166229790e-02	-5.279914e+00	-5.362966e+00
1.951469666749973e-02	-5.146996e+00	-5.154555e+00
1.953245118551123e-02	-4.967369e+00	-4.967363e+00
1.953991109992361e-02	-4.889498e+00	-4.888664e+00
1.955065368367349e-02	-4.775613e+00	-4.775287e+00
1.956410448461060e-02	-4.634168e+00	-4.633252e+00
1.958271187222563e-02	-4.436990e+00	-4.436628e+00
1.960261868928327e-02	-4.227025e+00	-4.226107e+00
1.964168118928327e-02	-3.812903e+00	-3.812534e+00
1.968074368928327e-02	-3.399304e+00	-3.398387e+00
1.971980618928327e-02	-2.984103e+00	-2.983728e+00
1.975886868928327e-02	-2.569535e+00	-2.568620e+00
1.979793118928327e-02	-2.153504e+00	-2.153125e+00
1.983699368928327e-02	-1.738219e+00	-1.737306e+00
1.987605618928327e-02	-1.321609e+00	-1.321225e+00
1.991511868928326e-02	-9.058555e-01	-9.049453e-01
1.995418118928326e-02	-4.889165e-01	-4.885292e-01
1.999324368928326e-02	-7.294691e-02	-7.203955e-02
2.003230618928326e-02	3.440702e-01	3.444609e-01
2.007136868928326e-02	7.600054e-01	7.609096e-01
2.011043118928326e-02	1.176850e+00	1.177244e+00
2.014949368928326e-02	1.592500e+00	1.593400e+00
2.018855618928326e-02	2.008921e+00	2.009317e+00
2.022761868928326e-02	2.424035e+00	2.424931e+00
2.026668118928326e-02	2.839782e+00	2.840180e+00
2.030574368928326e-02	3.254109e+00	3.255002e+00
2.034480618928326e-02	3.668933e+00	3.669333e+00
2.038386868928325e-02	4.082223e+00	4.083111e+00
2.042293118928325e-02	4.495871e+00	4.496275e+00
2.046199368928325e-02	4.907819e+00	4.908761e+00
2.050105618928325e-02	5.319902e+00	5.320508e+00
2.053667650117737e-02	5.694212e+00	5.695276e+00
2.056971980819701e-02	6.041717e+00	6.042293e+00
2.060486403240715e-02	6.409646e+00	6.410659e+00
2.064392653240715e-02	6.818642e+00	6.819175e+00
2.068298903240715e-02	7.225699e+00	7.226665e+00
2.072205153240715e-02	7.632571e+00	7.633065e+00
2.076111403240715e-02	8.037394e+00	8.038317e+00
2.080017653240715e-02	8.441897e+00	8.442358e+00
2.083923903240715e-02	8.844240e+00	8.845127e+00
2.087830153240715e-02	9.246135e+00	9.246565e+00
2.091736403240715e-02	9.645756e+00	9.646610e+00
2.095642653240715e-02	1.004480e+01	1.004520e+01
2.099548903240715e-02	1.044146e+01	1.044228e+01
2.103455153240714e-02	1.083741e+01	1.083779e+01
2.107361403240714e-02	1.123087e+01	1.123166e+01
2.111267653240714e-02	1.162349e+01	1.162385e+01
2.115173903240714e-02	1.201351e+01	1.201428e+01
2.119080153240714e-02	1.240257e+01	1.240290e+01
2.122986403240714e-02	1.278891e+01	1.278966e+01
2.126892653240714e-02	1.317417e+01	1.317449e+01
2.130798903240714e-02	1.355661e+01	1.355733e+01
2.134705153240714e-02	1.393784e+01	1.393814e+01
2.138611403240714e-02	1.431614e+01	1.431684e+01
2.142517653240714e-02	1.469311e+01	1.469339e+01
2.146423903240714e-02	1.506704e+01	1.506773e+01
2.150330153240713e-02	1.543953e+01	1.543980e+01
2.154236403240713e-02	1.580887e+01	1.580954e+01
2.158142653240713e-02	1.617664e+01	1.617690e+01
2.162048903240713e-02	1.654117e+01	1.654182e+01
2.165955153240713e-02	1.690402e+01	1.690426e+01
2.169861403240713e-02	1.726351e+01	1.726414e+01
2.173767653240713e-02	1.762120e+01	1.762143e+01
2.177673903240713e-02	1.797545e+01	1.797607e+01
2.181580153240713e-02	1.832778e+01	1.832799e+01
2.185486403240713e-02	1.867656e+01	1.867716e+01
2.189392653240713e-02	1.902331e+01	1.902351e+01
2.193298903240713e-02	1.936642e+01	1.936700e+01
2.197205153240712e-02	1.970739e+01	1.970758e+01
2.199704889925683e-02	1.992273e+01	1.992397e+01
2.199873323252969e-02	1.993706e+01	1.993850e+01
2.200210189907542e-02	1.996524e+01	1.996756e+01
2.200883923216687e-02	2.002082e+01	2.002560e+01
2.202231389834979e-02	2.012023e+01	2.014142e+01
2.203871497096854e-02	2.020219e+01	2.028191e+01
2.205686836884805e-02	2.025377e+01	2.043678e+01
2.208355977161977e-02	2.029678e+01	2.066328e+01
2.211225582767068e-02	2.032467e+01	2.090517e+01
2.219038082767068e-02	2.036912e+01	2.155504e+01
2.226292547052782e-02	2.039012e+01	2.214761e+01
2.233547011338496e-02	2.040854e+01	2.272794e+01
2.240801475624210e-02	2.042439e+01	2.329604e+01
2.248055939909925e-02	2.043766e+01	2.385189e+01
2.255310404195639e-02	2.044835e+01	2.439551e+01
2.262564868481353e-02	2.045647e+01	2.492689e+01
2.269819332767067e-02	2.046201e+01	2.544603e+01
2.292140761338495e-02	2.047878e+01	2.697136e+01
2.314462189909923e-02	2.049329e+01	2.834933e+01
2.336783618481351e-02	2.050552e+01	2.957993e+01
2.359105047052779e-02	2.051549e+01	3.066317e+01
2.381426475624207e-02	2.052319e+01	3.159904e+01
2.403747904195636e-02	2.052863e+01	3.238754e+01
2.426069332767064e-02	2.053179e+01	3.302867e+01
2.461225582767063e-02	2.053661e+01	3.367670e+01
2.496381832767062e-02	2.053839e+01	3.392143e+01
2.531538082767061e-02	2.053714e+01	3.376285e+01
2.566694332767061e-02	2.053285e+01	3.320097e+01
2.601850582767060e-02	2.052552e+01	3.223579e+01
2.637006832767059e-02	2.051516e+01	3.086730e+01
2.672163082767058e-02	2.050176e+01	2.909550e+01
2.685555939909915e-02	2.049657e+01	2.833080e+01
2.698948797052772e-02	2.048886e+01	2.751978e+01
2.712341654195629e-02	2.047863e+01	2.666244e+01
2.725734511338486e-02	2.046588e+01	2.575879e+01
2.739127368481343e-02	2.045060e+01	2.480882e+01
2.752520225624199e-02	2.043281e+01	2.381254e+01
2.765913082767056e-02	2.041250e+01	2.276994e+01
2.785444332767056e-02	2.034827e+01	2.118374e+01
2.789350582767056e-02	2.032181e+01	2.085674e+01
2.793256832767056e-02	2.027643e+01	2.052659e+01
2.797163082767056e-02	2.016065e+01	2.019335e+01
2.799041886554529e-02	2.002826e+01	2.003199e+01
2.800949257357813e-02	1.986834e+01	1.986746e+01
2.802004934906465e-02	1.977564e+01	1.977609e+01
2.803384354797976e-02	1.965738e+01	1.965637e+01
2.805110564934803e-02	1.950564e+01	1.950603e+01
2.807323575016603e-02	1.931348e+01	1.931246e+01
2.810759982666610e-02	1.900966e+01	1.901003e+01
2.814666232666610e-02	1.866459e+01	1.866357e+01
2.818572482666610e-02	1.831393e+01	1.831429e+01
2.822478732666610e-02	1.796328e+01	1.796226e+01
2.826384982666610e-02	1.760717e+01	1.760752e+01
2.830291232666610e-02	1.725115e+01	1.725013e+01
2.834197482666610e-02	1.688980e+01	1.689014e+01
2.838103732666610e-02	1.652863e+01	1.652761e+01
2.842009982666610e-02	1.616226e+01	1.616259e+01
2.845916232666610e-02	1.579615e+01	1.579513e+01
2.849822482666610e-02	1.542498e+01	1.542530e+01
2.853728732666609e-02	1.505416e+01	1.505314e+01
2.857634982666609e-02	1.467841e+01	1.467872e+01
2.861541232666609e-02	1.430310e+01	1.430209e+01
2.865447482666609e-02	1.392299e+01	1.392330e+01
2.869353732666609e-02	1.354343e+01	1.354241e+01
2.873259982666609e-02	1.315919e+01	1.315949e+01
2.877166232666609e-02	1.277560e+01	1.277458e+01
2.881072482666609e-02	1.238747e+01	1.238775e+01
2.884978732666609e-02	1.200007e+01	1.199906e+01
2.888884982666609e-02	1.160828e+01	1.160855e+01
2.892791232666609e-02	1.121732e+01	1.121630e+01
2.896697482666609e-02	1.082209e+01	1.082236e+01
2.900603732666608e-02	1.042781e+01	1.042680e+01
2.904509982666608e-02	1.002939e+01	1.002966e+01
2.908416232666608e-02	9.632015e+00	9.631005e+00
2.912322482666608e-02	9.230649e+00	9.230905e+00
2.916228732666608e-02	8.830421e+00	8.829414e+00
2.920134982666608e-02	8.426345e+00	8.426594e+00
2.924041232666608e-02	8.023510e+00	8.022504e+00
2.927947482666608e-02	7.616965e+00	7.617207e+00
2.931853732666608e-02	7.211765e+00	7.210762e+00
2.935759982666608e-02	6.802997e+00	6.803231e+00
2.939666232666608e-02	6.395677e+00	6.394676e+00
2.943572482666608e-02	5.984930e+00	5.985158e+00
2.947478732666607e-02	5.575736e+00	5.574739e+00
2.951384982666607e-02	5.163257e+00	5.163479e+00
2.955291232666607e-02	4.752437e+00	4.751443e+00
2.959197482666607e-02	4.338474e+00	4.338691e+00
2.963103732666607e-02	3.926276e+00	3.925285e+00
2.967009982666607e-02	3.511156e+00	3.511288e+00
2.970916232666607e-02	3.098154e+00	3.096763e+00
2.974822482666607e-02	2.681853e+00	2.681771e+00
2.978728732666607e-02	2.267750e+00	2.266375e+00
2.982634982666607e-02	1.850792e+00	1.850638e+00
2.986541232666607e-02	1.436021e+00	1.434622e+00
2.990447482666607e-02	1.018603e+00	1.018391e+00
2.994353732666606e-02	6.034458e-01	6.020054e-01
2.998259982666606e-02	1.858041e-01	1.855296e-01
3.002166232666606e-02	-2.294799e-01	-2.309742e-01
3.006072482666606e-02	-6.470947e-01	-6.474432e-01
3.009978732666606e-02	-1.062252e+00	-1.063815e+00
3.013884982666606e-02	-1.479586e+00	-1.480026e+00
3.017791232666606e-02	-1.894361e+00	-1.896014e+00
3.021697482666606e-02	-2.311157e+00	-2.311717e+00
3.025603732666606e-02	-2.725293e+00	-2.727072e+00
3.029509982666606e-02	-3.141287e+00	-3.142016e+00
3.033416232666606e-02	-3.554517e+00	-3.556487e+00
3.037322482666606e-02	-3.969428e+00	-3.970422e+00
3.041228732666605e-02	-4.381452e+00	-4.383759e+00
3.045134982666605e-02	-4.794921e+00	-4.796436e+00
3.049041232666605e-02	-5.186904e+00	-5.208391e+00
3.051421926267478e-02	-5.307365e+00	-5.459079e+00
3.053565674766581e-02	-5.355836e+00	-5.684556e+00
3.056578915716330e-02	-5.393643e+00	-6.001047e+00
3.059744780488111e-02	-5.418723e+00	-6.332989e+00
3.063651030488111e-02	-5.440546e+00	-6.741693e+00
