V1	V(vg)	Ix(U1:A)
0.000000000000000e+00	5.900100e-01	1.129238e-02
1.000000000000000e-01	5.899835e-01	1.118788e-02
2.000000000000000e-01	5.899523e-01	1.108333e-02
3.000000000000000e-01	5.899199e-01	1.097873e-02
4.000000000000000e-01	5.898851e-01	1.087409e-02
5.000000000000000e-01	5.898477e-01	1.076940e-02
6.000000000000001e-01	5.898077e-01	1.066465e-02
7.000000000000001e-01	5.897652e-01	1.055987e-02
8.000000000000000e-01	5.897200e-01	1.045502e-02
9.000000000000000e-01	5.896720e-01	1.035013e-02
1.000000000000000e+00	5.896213e-01	1.024518e-02
1.100000000000000e+00	5.895678e-01	1.014018e-02
1.200000000000000e+00	5.895113e-01	1.003512e-02
1.300000000000000e+00	5.894518e-01	9.930010e-03
1.400000000000000e+00	5.893893e-01	9.824838e-03
1.500000000000000e+00	5.893237e-01	9.719605e-03
1.600000000000000e+00	5.892549e-01	9.614312e-03
1.700000000000000e+00	5.891828e-01	9.508956e-03
1.800000000000000e+00	5.891073e-01	9.403537e-03
1.900000000000000e+00	5.890285e-01	9.298052e-03
2.000000000000000e+00	5.889462e-01	9.192499e-03
2.100000000000000e+00	5.888602e-01	9.086877e-03
2.200000000000000e+00	5.887706e-01	8.981186e-03
2.300000000000000e+00	5.886771e-01	8.875421e-03
2.400000000000000e+00	5.885798e-01	8.769582e-03
2.500000000000000e+00	5.884785e-01	8.663667e-03
2.600000000000000e+00	5.883731e-01	8.557674e-03
2.700000000000000e+00	5.882635e-01	8.451601e-03
2.800000000000000e+00	5.881495e-01	8.345444e-03
2.900000000000000e+00	5.880312e-01	8.239202e-03
3.000000000000000e+00	5.879083e-01	8.132873e-03
3.100000000000000e+00	5.877806e-01	8.026454e-03
3.200000000000000e+00	5.876482e-01	7.919942e-03
3.300000000000000e+00	5.875106e-01	7.813334e-03
3.400000000000000e+00	5.873681e-01	7.706630e-03
3.500000000000000e+00	5.872202e-01	7.599823e-03
3.600000000000000e+00	5.870668e-01	7.492912e-03
3.700000000000000e+00	5.869079e-01	7.385893e-03
3.800000000000000e+00	5.867431e-01	7.278763e-03
3.900000000000000e+00	5.865722e-01	7.171518e-03
4.000000000000000e+00	5.863953e-01	7.064153e-03
4.100000000000001e+00	5.862118e-01	6.956667e-03
4.200000000000000e+00	5.860218e-01	6.849053e-03
4.300000000000000e+00	5.858248e-01	6.741308e-03
4.400000000000000e+00	5.856208e-01	6.633426e-03
4.500000000000000e+00	5.854093e-01	6.525402e-03
4.600000000000001e+00	5.851902e-01	6.417233e-03
4.700000000000000e+00	5.849631e-01	6.308910e-03
4.800000000000001e+00	5.847278e-01	6.200430e-03
4.900000000000000e+00	5.844838e-01	6.091785e-03
5.000000000000000e+00	5.842309e-01	5.982968e-03
5.100000000000001e+00	5.839687e-01	5.873974e-03
5.200000000000000e+00	5.836968e-01	5.764793e-03
5.300000000000001e+00	5.834147e-01	5.655418e-03
5.400000000000000e+00	5.831220e-01	5.545840e-03
5.500000000000000e+00	5.828182e-01	5.436050e-03
5.600000000000001e+00	5.825028e-01	5.326038e-03
5.700000000000000e+00	5.821753e-01	5.215793e-03
5.800000000000001e+00	5.818350e-01	5.105304e-03
5.900000000000000e+00	5.814813e-01	4.994557e-03
6.000000000000000e+00	5.811134e-01	4.883541e-03
6.100000000000001e+00	5.807307e-01	4.772239e-03
6.200000000000000e+00	5.803323e-01	4.660637e-03
6.300000000000001e+00	5.799172e-01	4.548717e-03
6.400000000000000e+00	5.794846e-01	4.436461e-03
6.500000000000000e+00	5.790333e-01	4.323847e-03
6.600000000000001e+00	5.785621e-01	4.210854e-03
6.700000000000000e+00	5.780699e-01	4.097456e-03
6.800000000000001e+00	5.775550e-01	3.983626e-03
6.900000000000000e+00	5.770160e-01	3.869333e-03
7.000000000000000e+00	5.764510e-01	3.754544e-03
7.100000000000001e+00	5.758581e-01	3.639220e-03
7.200000000000000e+00	5.752351e-01	3.523319e-03
7.300000000000001e+00	5.745794e-01	3.406793e-03
7.400000000000000e+00	5.738881e-01	3.289586e-03
7.500000000000000e+00	5.731580e-01	3.171636e-03
7.600000000000001e+00	5.723853e-01	3.052870e-03
7.700000000000000e+00	5.715655e-01	2.933205e-03
7.800000000000001e+00	5.706936e-01	2.812541e-03
7.900000000000000e+00	5.697635e-01	2.690763e-03
8.000000000000000e+00	5.687679e-01	2.567731e-03
8.100000000000000e+00	5.676979e-01	2.443275e-03
8.200000000000001e+00	5.665427e-01	2.317189e-03
8.300000000000001e+00	5.652887e-01	2.189212e-03
8.400000000000000e+00	5.639186e-01	2.059010e-03
8.500000000000000e+00	5.624094e-01	1.926146e-03
8.600000000000000e+00	5.607304e-01	1.790030e-03
8.700000000000001e+00	5.588381e-01	1.649827e-03
8.800000000000001e+00	5.566657e-01	1.504297e-03
8.900000000000000e+00	5.541127e-01	1.351458e-03
9.000000000000000e+00	5.509927e-01	1.187768e-03
9.100000000000000e+00	5.469085e-01	1.005621e-03
9.200000000000001e+00	5.405842e-01	7.805530e-04
9.300000000000001e+00	6.331120e-01	2.113792e-02
9.400000000000000e+00	6.333576e-01	2.113794e-02
9.500000000000000e+00	6.336032e-01	2.113796e-02
9.600000000000001e+00	6.338487e-01	2.113798e-02
9.700000000000001e+00	6.340942e-01	2.113800e-02
9.800000000000001e+00	6.343397e-01	2.113802e-02
9.900000000000000e+00	6.345851e-01	2.113804e-02
1.000000000000000e+01	6.348305e-01	2.113806e-02
1.010000000000000e+01	6.350758e-01	2.113808e-02
1.020000000000000e+01	6.353211e-01	2.113810e-02
1.030000000000000e+01	6.355663e-01	2.113812e-02
1.040000000000000e+01	6.358115e-01	2.113814e-02
1.050000000000000e+01	6.360567e-01	2.113816e-02
1.060000000000000e+01	6.363018e-01	2.113818e-02
1.070000000000000e+01	6.365469e-01	2.113819e-02
1.080000000000000e+01	6.367919e-01	2.113821e-02
1.090000000000000e+01	6.370369e-01	2.113823e-02
1.100000000000000e+01	6.372818e-01	2.113825e-02
1.110000000000000e+01	6.375268e-01	2.113827e-02
1.120000000000000e+01	6.377716e-01	2.113829e-02
1.130000000000000e+01	6.380165e-01	2.113830e-02
1.140000000000000e+01	6.382613e-01	2.113832e-02
1.150000000000000e+01	6.385060e-01	2.113834e-02
1.160000000000000e+01	6.387507e-01	2.113836e-02
1.170000000000000e+01	6.389953e-01	2.113837e-02
1.180000000000000e+01	6.392400e-01	2.113839e-02
1.190000000000000e+01	6.394846e-01	2.113841e-02
1.200000000000000e+01	6.397291e-01	2.113843e-02
1.210000000000000e+01	6.399736e-01	2.113844e-02
1.220000000000000e+01	6.402181e-01	2.113846e-02
1.230000000000000e+01	6.404625e-01	2.113848e-02
1.240000000000000e+01	6.407070e-01	2.113849e-02
1.250000000000000e+01	6.409513e-01	2.113851e-02
1.260000000000000e+01	6.411956e-01	2.113852e-02
1.270000000000000e+01	6.414399e-01	2.113854e-02
1.280000000000000e+01	6.416841e-01	2.113856e-02
1.290000000000000e+01	6.419283e-01	2.113857e-02
1.300000000000000e+01	6.421725e-01	2.113859e-02
1.310000000000000e+01	6.424165e-01	2.113861e-02
1.320000000000000e+01	6.426606e-01	2.113862e-02
1.330000000000000e+01	6.429047e-01	2.113864e-02
1.340000000000000e+01	6.431487e-01	2.113865e-02
1.350000000000000e+01	6.433926e-01	2.113867e-02
1.360000000000000e+01	6.436366e-01	2.113868e-02
1.370000000000000e+01	6.438804e-01	2.113870e-02
1.380000000000000e+01	6.441243e-01	2.113871e-02
1.390000000000000e+01	6.443681e-01	2.113873e-02
1.400000000000000e+01	6.446119e-01	2.113874e-02
1.410000000000000e+01	6.448556e-01	2.113876e-02
1.420000000000000e+01	6.450993e-01	2.113877e-02
1.430000000000000e+01	6.453429e-01	2.113879e-02
1.440000000000000e+01	6.455866e-01	2.113880e-02
1.450000000000000e+01	6.458302e-01	2.113882e-02
1.460000000000000e+01	6.460737e-01	2.113883e-02
1.470000000000000e+01	6.463172e-01	2.113885e-02
1.480000000000000e+01	6.465607e-01	2.113886e-02
1.490000000000000e+01	6.468041e-01	2.113888e-02
1.500000000000000e+01	6.470475e-01	2.113889e-02
1.510000000000000e+01	6.472909e-01	2.113890e-02
1.520000000000000e+01	6.475342e-01	2.113892e-02
1.530000000000000e+01	6.477775e-01	2.113893e-02
1.540000000000000e+01	6.480207e-01	2.113895e-02
1.550000000000000e+01	6.482639e-01	2.113896e-02
1.560000000000000e+01	6.485071e-01	2.113897e-02
1.570000000000000e+01	6.487502e-01	2.113899e-02
1.580000000000000e+01	6.489933e-01	2.113900e-02
1.590000000000000e+01	6.492364e-01	2.113901e-02
1.600000000000000e+01	6.494794e-01	2.113903e-02
1.610000000000000e+01	6.497225e-01	2.113904e-02
1.620000000000000e+01	6.499654e-01	2.113905e-02
1.630000000000000e+01	6.502083e-01	2.113907e-02
1.640000000000000e+01	6.504512e-01	2.113908e-02
1.650000000000000e+01	6.506940e-01	2.113909e-02
1.660000000000000e+01	6.509368e-01	2.113911e-02
1.670000000000000e+01	6.511796e-01	2.113912e-02
1.680000000000000e+01	6.514224e-01	2.113913e-02
1.690000000000000e+01	6.516651e-01	2.113914e-02
1.700000000000000e+01	6.519077e-01	2.113916e-02
1.710000000000000e+01	6.521504e-01	2.113917e-02
1.720000000000000e+01	6.523930e-01	2.113918e-02
1.730000000000000e+01	6.526356e-01	2.113920e-02
1.740000000000000e+01	6.528781e-01	2.113921e-02
1.750000000000000e+01	6.531206e-01	2.113922e-02
1.760000000000000e+01	6.533630e-01	2.113923e-02
1.770000000000000e+01	6.536055e-01	2.113924e-02
1.780000000000000e+01	6.538479e-01	2.113926e-02
1.790000000000000e+01	6.540902e-01	2.113927e-02
1.800000000000000e+01	6.543325e-01	2.113928e-02
1.810000000000000e+01	6.545748e-01	2.113929e-02
1.820000000000000e+01	6.548171e-01	2.113930e-02
1.830000000000000e+01	6.550593e-01	2.113932e-02
1.840000000000000e+01	6.553015e-01	2.113933e-02
1.850000000000000e+01	6.555436e-01	2.113934e-02
1.860000000000000e+01	6.557857e-01	2.113935e-02
1.870000000000000e+01	6.560279e-01	2.113936e-02
1.880000000000000e+01	6.562698e-01	2.113937e-02
1.890000000000000e+01	6.565119e-01	2.113939e-02
1.900000000000000e+01	6.567539e-01	2.113940e-02
1.910000000000000e+01	6.569958e-01	2.113941e-02
1.920000000000000e+01	6.572377e-01	2.113942e-02
1.930000000000000e+01	6.574796e-01	2.113943e-02
1.940000000000000e+01	6.577215e-01	2.113944e-02
1.950000000000000e+01	6.579633e-01	2.113945e-02
1.960000000000000e+01	6.582050e-01	2.113946e-02
1.970000000000000e+01	6.584468e-01	2.113947e-02
1.980000000000000e+01	6.586885e-01	2.113949e-02
1.990000000000000e+01	6.589302e-01	2.113950e-02
2.000000000000000e+01	6.591718e-01	2.113951e-02
