V1	V(vg)	Ix(U1:G)
0.000000000000000e+00	0.000000e+00	0.000000e+00
1.000000000000000e-01	9.890590e-02	2.327870e-07
2.000000000000000e-01	1.771556e-01	4.860516e-06
3.000000000000000e-01	2.124524e-01	1.862714e-05
4.000000000000000e-01	2.302715e-01	3.611244e-05
5.000000000000000e-01	2.418423e-01	5.492718e-05
6.000000000000001e-01	2.504054e-01	7.438183e-05
7.000000000000001e-01	2.572226e-01	9.420796e-05
8.000000000000000e-01	2.629043e-01	1.142757e-04
9.000000000000000e-01	2.677879e-01	1.345132e-04
1.000000000000000e+00	2.720794e-01	1.548767e-04
1.100000000000000e+00	2.759134e-01	1.753376e-04
1.200000000000000e+00	2.793828e-01	1.958760e-04
1.300000000000000e+00	2.825544e-01	2.164778e-04
1.400000000000000e+00	2.854790e-01	2.371321e-04
1.500000000000000e+00	2.881922e-01	2.578314e-04
1.600000000000000e+00	2.907252e-01	2.785691e-04
1.700000000000000e+00	2.931016e-01	2.993401e-04
1.800000000000000e+00	2.953408e-01	3.201402e-04
1.900000000000000e+00	2.974587e-01	3.409662e-04
2.000000000000000e+00	2.994684e-01	3.618152e-04
2.100000000000000e+00	3.013811e-01	3.826849e-04
2.200000000000000e+00	3.032064e-01	4.035731e-04
2.300000000000000e+00	3.049524e-01	4.244782e-04
2.400000000000000e+00	3.066262e-01	4.453987e-04
2.500000000000000e+00	3.082340e-01	4.663332e-04
2.600000000000000e+00	3.097811e-01	4.872806e-04
2.700000000000000e+00	3.112725e-01	5.082399e-04
2.800000000000000e+00	3.127123e-01	5.292101e-04
2.900000000000000e+00	3.141043e-01	5.501906e-04
3.000000000000000e+00	3.154519e-01	5.711804e-04
3.100000000000000e+00	3.167582e-01	5.921791e-04
3.200000000000000e+00	3.180258e-01	6.131860e-04
3.300000000000000e+00	3.192573e-01	6.342006e-04
3.400000000000000e+00	3.204549e-01	6.552223e-04
3.500000000000000e+00	3.216207e-01	6.762509e-04
3.600000000000000e+00	3.227566e-01	6.972858e-04
3.700000000000000e+00	3.238643e-01	7.183267e-04
3.800000000000000e+00	3.249454e-01	7.393733e-04
3.900000000000000e+00	3.260013e-01	7.604252e-04
4.000000000000000e+00	3.270334e-01	7.814823e-04
4.100000000000001e+00	3.280428e-01	8.025441e-04
4.200000000000000e+00	3.290309e-01	8.236105e-04
4.300000000000000e+00	3.299985e-01	8.446812e-04
4.400000000000000e+00	3.309468e-01	8.657560e-04
4.500000000000000e+00	3.318766e-01	8.868348e-04
4.600000000000001e+00	3.327888e-01	9.079173e-04
4.700000000000000e+00	3.336842e-01	9.290033e-04
4.800000000000001e+00	3.345635e-01	9.500929e-04
4.900000000000000e+00	3.354275e-01	9.711856e-04
5.000000000000000e+00	3.362768e-01	9.922816e-04
5.100000000000001e+00	3.371120e-01	1.013380e-03
5.200000000000000e+00	3.379337e-01	1.034482e-03
5.300000000000001e+00	3.387424e-01	1.055587e-03
5.400000000000000e+00	3.395387e-01	1.076694e-03
5.500000000000000e+00	3.403231e-01	1.097804e-03
5.600000000000001e+00	3.410960e-01	1.118916e-03
5.700000000000000e+00	3.418578e-01	1.140030e-03
5.800000000000001e+00	3.426089e-01	1.161147e-03
5.900000000000000e+00	3.433498e-01	1.182266e-03
6.000000000000000e+00	3.440808e-01	1.203387e-03
6.100000000000001e+00	3.448023e-01	1.224510e-03
6.200000000000000e+00	3.455145e-01	1.245635e-03
6.300000000000001e+00	3.462178e-01	1.266762e-03
6.400000000000000e+00	3.469126e-01	1.287891e-03
6.500000000000000e+00	3.475990e-01	1.309021e-03
6.600000000000001e+00	3.482774e-01	1.330154e-03
6.700000000000000e+00	3.489480e-01	1.351288e-03
6.800000000000001e+00	3.496110e-01	1.372423e-03
6.900000000000000e+00	3.502668e-01	1.393560e-03
7.000000000000000e+00	3.509155e-01	1.414699e-03
7.100000000000001e+00	3.515573e-01	1.435839e-03
7.200000000000000e+00	3.521924e-01	1.456980e-03
7.300000000000001e+00	3.528211e-01	1.478123e-03
7.400000000000000e+00	3.534435e-01	1.499267e-03
7.500000000000000e+00	3.540598e-01	1.520413e-03
7.600000000000001e+00	3.546702e-01	1.541560e-03
7.700000000000000e+00	3.552749e-01	1.562707e-03
7.800000000000001e+00	3.558739e-01	1.583857e-03
7.900000000000000e+00	3.564675e-01	1.605007e-03
8.000000000000000e+00	3.570558e-01	1.626158e-03
8.100000000000000e+00	3.576389e-01	1.647311e-03
8.200000000000001e+00	3.582170e-01	1.668465e-03
8.300000000000001e+00	3.587903e-01	1.689619e-03
8.400000000000000e+00	3.593587e-01	1.710775e-03
8.500000000000000e+00	3.599225e-01	1.731931e-03
8.600000000000000e+00	3.604818e-01	1.753089e-03
8.700000000000001e+00	3.610367e-01	1.774248e-03
8.800000000000001e+00	3.615873e-01	1.795407e-03
8.900000000000000e+00	3.621336e-01	1.816567e-03
9.000000000000000e+00	3.626758e-01	1.837729e-03
9.100000000000000e+00	3.632141e-01	1.858891e-03
9.200000000000001e+00	3.637484e-01	1.880054e-03
9.300000000000001e+00	3.642789e-01	1.901217e-03
9.400000000000000e+00	3.648057e-01	1.922382e-03
9.500000000000000e+00	3.653288e-01	1.943547e-03
9.600000000000001e+00	3.658484e-01	1.964713e-03
9.700000000000001e+00	3.663644e-01	1.985880e-03
9.800000000000001e+00	3.668770e-01	2.007047e-03
9.900000000000000e+00	3.673863e-01	2.028216e-03
1.000000000000000e+01	3.678924e-01	2.049385e-03
1.010000000000000e+01	3.683952e-01	2.070554e-03
1.020000000000000e+01	3.688949e-01	2.091724e-03
1.030000000000000e+01	3.693916e-01	2.112895e-03
1.040000000000000e+01	3.698852e-01	2.134067e-03
1.050000000000000e+01	3.703759e-01	2.155239e-03
1.060000000000000e+01	3.708637e-01	2.176412e-03
1.070000000000000e+01	3.713487e-01	2.197585e-03
1.080000000000000e+01	3.718309e-01	2.218759e-03
1.090000000000000e+01	3.723104e-01	2.239934e-03
1.100000000000000e+01	3.727873e-01	2.261109e-03
1.110000000000000e+01	3.732615e-01	2.282285e-03
1.120000000000000e+01	3.737332e-01	2.303461e-03
1.130000000000000e+01	3.742024e-01	2.324638e-03
1.140000000000000e+01	3.746691e-01	2.345815e-03
1.150000000000000e+01	3.751334e-01	2.366993e-03
1.160000000000000e+01	3.755953e-01	2.388171e-03
1.170000000000000e+01	3.760549e-01	2.409350e-03
1.180000000000000e+01	3.765122e-01	2.430529e-03
1.190000000000000e+01	3.769673e-01	2.451709e-03
1.200000000000000e+01	3.774201e-01	2.472889e-03
1.210000000000000e+01	3.778708e-01	2.494070e-03
1.220000000000000e+01	3.783193e-01	2.515251e-03
1.230000000000000e+01	3.787658e-01	2.536433e-03
1.240000000000000e+01	3.792102e-01	2.557615e-03
1.250000000000000e+01	3.796526e-01	2.578797e-03
1.260000000000000e+01	3.800930e-01	2.599980e-03
1.270000000000000e+01	3.805314e-01	2.621164e-03
1.280000000000000e+01	3.809679e-01	2.642347e-03
1.290000000000000e+01	3.814026e-01	2.663531e-03
1.300000000000000e+01	3.818354e-01	2.684716e-03
1.310000000000000e+01	3.822663e-01	2.705901e-03
1.320000000000000e+01	3.826955e-01	2.727086e-03
1.330000000000000e+01	3.831229e-01	2.748272e-03
1.340000000000000e+01	3.835485e-01	2.769458e-03
1.350000000000000e+01	3.839724e-01	2.790644e-03
1.360000000000000e+01	3.843947e-01	2.811831e-03
1.370000000000000e+01	3.848153e-01	2.833018e-03
1.380000000000000e+01	3.852342e-01	2.854205e-03
1.390000000000000e+01	3.856516e-01	2.875393e-03
1.400000000000000e+01	3.860674e-01	2.896581e-03
1.410000000000000e+01	3.864816e-01	2.917770e-03
1.420000000000000e+01	3.868942e-01	2.938959e-03
1.430000000000000e+01	3.873053e-01	2.960148e-03
1.440000000000000e+01	3.877150e-01	2.981337e-03
1.450000000000000e+01	3.881232e-01	3.002527e-03
1.460000000000000e+01	3.885299e-01	3.023717e-03
1.470000000000000e+01	3.889352e-01	3.044907e-03
1.480000000000000e+01	3.893391e-01	3.066098e-03
1.490000000000000e+01	3.897417e-01	3.087289e-03
1.500000000000000e+01	3.901428e-01	3.108480e-03
1.510000000000000e+01	3.905426e-01	3.129672e-03
1.520000000000000e+01	3.909411e-01	3.150864e-03
1.530000000000000e+01	3.913383e-01	3.172056e-03
1.540000000000000e+01	3.917341e-01	3.193248e-03
1.550000000000000e+01	3.921287e-01	3.214441e-03
1.560000000000000e+01	3.925220e-01	3.235634e-03
1.570000000000000e+01	3.929141e-01	3.256827e-03
1.580000000000000e+01	3.933050e-01	3.278020e-03
1.590000000000000e+01	3.936947e-01	3.299214e-03
1.600000000000000e+01	3.940832e-01	3.320408e-03
1.610000000000000e+01	3.944705e-01	3.341602e-03
1.620000000000000e+01	3.948566e-01	3.362797e-03
1.630000000000000e+01	3.952416e-01	3.383991e-03
1.640000000000000e+01	3.956254e-01	3.405186e-03
1.650000000000000e+01	3.960082e-01	3.426381e-03
1.660000000000000e+01	3.963898e-01	3.447577e-03
1.670000000000000e+01	3.967704e-01	3.468772e-03
1.680000000000000e+01	3.971499e-01	3.489968e-03
1.690000000000000e+01	3.975283e-01	3.511164e-03
1.700000000000000e+01	3.979057e-01	3.532361e-03
1.710000000000000e+01	3.982820e-01	3.553557e-03
1.720000000000000e+01	3.986574e-01	3.574754e-03
1.730000000000000e+01	3.990316e-01	3.595951e-03
1.740000000000000e+01	3.994050e-01	3.617148e-03
1.750000000000000e+01	3.997773e-01	3.638345e-03
1.760000000000000e+01	4.001487e-01	3.659543e-03
1.770000000000000e+01	4.005190e-01	3.680741e-03
1.780000000000000e+01	4.008885e-01	3.701939e-03
1.790000000000000e+01	4.012570e-01	3.723137e-03
1.800000000000000e+01	4.016246e-01	3.744335e-03
1.810000000000000e+01	4.019912e-01	3.765534e-03
1.820000000000000e+01	4.023570e-01	3.786732e-03
1.830000000000000e+01	4.027219e-01	3.807931e-03
1.840000000000000e+01	4.030859e-01	3.829131e-03
1.850000000000000e+01	4.034489e-01	3.850330e-03
1.860000000000000e+01	4.038112e-01	3.871530e-03
1.870000000000000e+01	4.041726e-01	3.892729e-03
1.880000000000000e+01	4.045331e-01	3.913929e-03
1.890000000000000e+01	4.048928e-01	3.935129e-03
1.900000000000000e+01	4.052517e-01	3.956330e-03
1.910000000000000e+01	4.056097e-01	3.977530e-03
1.920000000000000e+01	4.059670e-01	3.998730e-03
1.930000000000000e+01	4.063234e-01	4.019931e-03
1.940000000000000e+01	4.066791e-01	4.041132e-03
1.950000000000000e+01	4.070340e-01	4.062333e-03
1.960000000000000e+01	4.073881e-01	4.083534e-03
1.970000000000000e+01	4.077414e-01	4.104736e-03
1.980000000000000e+01	4.080940e-01	4.125937e-03
1.990000000000000e+01	4.084458e-01	4.147139e-03
2.000000000000000e+01	4.087969e-01	4.168341e-03
